
T0E8C 001:730 SEGGER J-Link V4.96d Log File (0001ms, 1704ms total)
T0E8C 001:730 DLL Compiled: Jan 29 2015 11:45:37 (0001ms, 1704ms total)
T0E8C 001:730 Logging started @ 2016-10-09 16:46 (0001ms, 1704ms total)
T0E8C 001:731 JLINK_SetWarnOutHandler(...) (0000ms, 1704ms total)
T0E8C 001:731 JLINK_OpenEx(...)
Firmware: J-Link ARM V8 compiled Nov 14 2012 22:34:52
Hardware: V8.00
S/N: 799713843
Feature(s): RDI,FlashDL,FlashBP,JFlash,GDBFULL  returns O.K. (0876ms, 2580ms total)
T0E8C 002:607 JLINK_SetErrorOutHandler(...) (0000ms, 2580ms total)
T0E8C 002:607 JLINK_ExecCommand("ProjectFile = "C:\Users\user\Documents\KEIL\STM32F107Àý³Ì\12.WIFI\USER\JLinkSettings.ini"", ...)  returns 0x00 (0001ms, 2581ms total)
T0E8C 002:608 JLINK_ExecCommand("Device = STM32F107VC", ...)Device "STM32F107VC" selected.  returns 0x00 (0001ms, 2582ms total)
T0E8C 002:609 JLINK_ExecCommand("DisableConnectionTimeout", ...)  returns 0x01 (0000ms, 2582ms total)
T0E8C 002:609 JLINK_GetHardwareVersion()  returns 0x13880 (0000ms, 2582ms total)
T0E8C 002:609 JLINK_GetDLLVersion()  returns 49604 (0000ms, 2582ms total)
T0E8C 002:609 JLINK_GetFirmwareString(...) (0000ms, 2582ms total)
T0E8C 002:609 JLINK_GetDLLVersion()  returns 49604 (0000ms, 2582ms total)
T0E8C 002:610 JLINK_GetCompileDateTime() (0000ms, 2583ms total)
T0E8C 002:610 JLINK_GetFirmwareString(...) (0000ms, 2583ms total)
T0E8C 002:610 JLINK_GetHardwareVersion()  returns 0x13880 (0000ms, 2583ms total)
T0E8C 002:611 JLINK_TIF_Select(JLINKARM_TIF_JTAG)  returns 0x00 (0001ms, 2584ms total)
T0E8C 002:612 JLINK_SetSpeed(20000) (0001ms, 2585ms total)
T0E8C 002:613 JLINK_GetIdData(...) >0x2F8 JTAG>TotalIRLen = 9, IRPrint = 0x0011 >0x30 JTAG> >0x210 JTAG> >0x40 JTAG> >0x40 JTAG> >0x40 JTAG> >0x30 JTAG> >0x40 JTAG> >0x40 JTAG> >0x40 JTAG> >0x40 JTAG> >0x40 JTAG> >0x40 JTAG> >0x40 JTAG> >0x40 JTAG> >0x2F8 JTAG>TotalIRLen = 9, IRPrint = 0x0011 >0x30 JTAG> >0x210 JTAG> >0x70 JTAG> >0x40 JTAG> >0x40 JTAG> >0x40 JTAG> >0x50 JTAG> >0x80 JTAG> >0x40 JTAG> >0x30 JTAG> >0x40 JTAG> >0x40 JTAG> >0x30 JTAG> >0x40 JTAG> >0x50 JTAG>
Found Cortex-M3 r1p1, Little endian. -- CPU_WriteMem(4 bytes @ 0xE0002000) -- CPU_ReadMem(4 bytes @ 0xE000EDF0) -- CPU_ReadMem(4 bytes @ 0xE0002000)FPUnit: 6 code (BP) slots and 2 literal slots -- CPU_ReadMem(4 bytes @ 0xE000EDFC) -- CPU_ReadMem(4 bytes @ 0xE0001000) -- CPU_WriteMem(4 bytes @ 0xE0001000) -- CPU_ReadMem(4 bytes @ 0xE000ED88) -- CPU_WriteMem(4 bytes @ 0xE000ED88) -- CPU_ReadMem(4 bytes @ 0xE000ED88) -- CPU_WriteMem(4 bytes @ 0xE000ED88) -- CPU_ReadMem(4 bytes @ 0xE00FF010)TPIU fitted.
 -- CPU_ReadMem(4 bytes @ 0xE00FF014)ETM fitted. -- CPU_ReadMem(4 bytes @ 0xE00FF018) ScanLen=9 NumDevices=2 aId[0]=0x3BA00477 aIrRead[0]=0 aScanLen[0]=0 aScanRead[0]=0 (0029ms, 2614ms total)
T0E8C 002:642 JLINK_JTAG_GetDeviceID(DeviceIndex = 0)  returns 0x3BA00477 (0000ms, 2614ms total)
T0E8C 002:642 JLINK_JTAG_GetDeviceInfo(DeviceIndex = 0)  returns 0x00 (0000ms, 2614ms total)
T0E8C 002:642 JLINK_JTAG_GetDeviceID(DeviceIndex = 1)  returns 0x6418041 (0000ms, 2614ms total)
T0E8C 002:642 JLINK_JTAG_GetDeviceInfo(DeviceIndex = 1)  returns 0x00 (0000ms, 2614ms total)
T0E8C 002:642 JLINK_GetDLLVersion()  returns 49604 (0000ms, 2614ms total)
T0E8C 002:642 JLINK_CORE_GetFound()  returns 0x30000FF (0001ms, 2615ms total)
T0E8C 002:643 JLINK_GetDebugInfo(0x100) -- Value=0xE00FF003  returns 0x00 (0000ms, 2615ms total)
T0E8C 002:643 JLINK_ReadMem (0xE00FF000, 0x0020 Bytes, ...) -- CPU is running -- CPU_ReadMem(32 bytes @ 0xE00FF000) - Data: 03 F0 F0 FF 03 20 F0 FF 03 30 F0 FF 03 10 F0 FF ...  returns 0x00 (0001ms, 2616ms total)
T0E8C 002:644 JLINK_ReadMem (0xE000EFF0, 0x0010 Bytes, ...) -- CPU is running -- CPU_ReadMem(16 bytes @ 0xE000EFF0) - Data: 0D 00 00 00 E0 00 00 00 05 00 00 00 B1 00 00 00  returns 0x00 (0001ms, 2617ms total)
T0E8C 002:645 JLINK_ReadMem (0xE000EFD0, 0x0020 Bytes, ...) -- CPU is running -- CPU_ReadMem(32 bytes @ 0xE000EFD0) - Data: 04 00 00 00 00 00 00 00 00 00 00 00 00 00 00 00 ...  returns 0x00 (0000ms, 2617ms total)
T0E8C 002:645 JLINK_ReadMem (0xE0001FF0, 0x0010 Bytes, ...) -- CPU is running -- CPU_ReadMem(16 bytes @ 0xE0001FF0) - Data: 0D 00 00 00 E0 00 00 00 05 00 00 00 B1 00 00 00  returns 0x00 (0001ms, 2618ms total)
T0E8C 002:646 JLINK_ReadMem (0xE0001FD0, 0x0020 Bytes, ...) -- CPU is running -- CPU_ReadMem(32 bytes @ 0xE0001FD0) - Data: 04 00 00 00 00 00 00 00 00 00 00 00 00 00 00 00 ...  returns 0x00 (0001ms, 2619ms total)
T0E8C 002:647 JLINK_ReadMem (0xE0002FF0, 0x0010 Bytes, ...) -- CPU is running -- CPU_ReadMem(16 bytes @ 0xE0002FF0) - Data: 0D 00 00 00 E0 00 00 00 05 00 00 00 B1 00 00 00  returns 0x00 (0000ms, 2619ms total)
T0E8C 002:647 JLINK_ReadMem (0xE0002FD0, 0x0020 Bytes, ...) -- CPU is running -- CPU_ReadMem(32 bytes @ 0xE0002FD0) - Data: 04 00 00 00 00 00 00 00 00 00 00 00 00 00 00 00 ...  returns 0x00 (0001ms, 2620ms total)
T0E8C 002:648 JLINK_ReadMem (0xE0000FF0, 0x0010 Bytes, ...) -- CPU is running -- CPU_ReadMem(16 bytes @ 0xE0000FF0) - Data: 0D 00 00 00 E0 00 00 00 05 00 00 00 B1 00 00 00  returns 0x00 (0000ms, 2620ms total)
T0E8C 002:648 JLINK_ReadMem (0xE0000FD0, 0x0020 Bytes, ...) -- CPU is running -- CPU_ReadMem(32 bytes @ 0xE0000FD0) - Data: 04 00 00 00 00 00 00 00 00 00 00 00 00 00 00 00 ...  returns 0x00 (0001ms, 2621ms total)
T0E8C 002:649 JLINK_ReadMem (0xE0040FF0, 0x0010 Bytes, ...) -- CPU is running -- CPU_ReadMem(16 bytes @ 0xE0040FF0) - Data: 0D 00 00 00 90 00 00 00 05 00 00 00 B1 00 00 00  returns 0x00 (0001ms, 2622ms total)
T0E8C 002:650 JLINK_ReadMem (0xE0040FD0, 0x0020 Bytes, ...) -- CPU is running -- CPU_ReadMem(32 bytes @ 0xE0040FD0) - Data: 04 00 00 00 00 00 00 00 00 00 00 00 00 00 00 00 ...  returns 0x00 (0000ms, 2622ms total)
T0E8C 002:650 JLINK_ReadMem (0xE0041FF0, 0x0010 Bytes, ...) -- CPU is running -- CPU_ReadMem(16 bytes @ 0xE0041FF0) - Data: 0D 00 00 00 90 00 00 00 05 00 00 00 B1 00 00 00  returns 0x00 (0001ms, 2623ms total)
T0E8C 002:651 JLINK_ReadMem (0xE0041FD0, 0x0020 Bytes, ...) -- CPU is running -- CPU_ReadMem(32 bytes @ 0xE0041FD0) - Data: 04 00 00 00 00 00 00 00 00 00 00 00 00 00 00 00 ...  returns 0x00 (0000ms, 2623ms total)
T0E8C 002:651 JLINK_ReadMemU32(0xE000ED00, 0x0001 Items, ...) -- CPU is running -- CPU_ReadMem(4 bytes @ 0xE000ED00) - Data: 31 C2 1F 41  returns 0x01 (0001ms, 2624ms total)
T0E8C 002:652 JLINK_SetResetType(JLINKARM_RESET_TYPE_NORMAL)  returns JLINKARM_RESET_TYPE_NORMAL (0000ms, 2624ms total)
T0E8C 002:652 JLINK_Reset() -- CPU is running -- CPU_WriteMem(4 bytes @ 0xE000EDF0) -- CPU is running -- CPU_WriteMem(4 bytes @ 0xE000EDFC) -- CPU is running -- CPU_WriteMem(4 bytes @ 0xE000ED0C) -- CPU is running -- CPU_ReadMem(4 bytes @ 0xE000EDF0) -- CPU is running -- CPU_ReadMem(4 bytes @ 0xE000EDF0) -- CPU is running -- CPU_WriteMem(4 bytes @ 0xE000EDF0) -- CPU is running -- CPU_WriteMem(4 bytes @ 0xE000EDFC) -- CPU is running -- CPU_ReadMem(4 bytes @ 0xE000EDF0) >0x80 JTAG> >0x40 JTAG> >0x30 JTAG>
 >0x40 JTAG> >0x50 JTAG> >0x40 JTAG> -- CPU_WriteMem(4 bytes @ 0xE000EDFC) -- CPU_WriteMem(4 bytes @ 0xE0001028) -- CPU_WriteMem(4 bytes @ 0xE0001038) -- CPU_WriteMem(4 bytes @ 0xE0001048) -- CPU_WriteMem(4 bytes @ 0xE0001058) -- CPU_WriteMem(4 bytes @ 0xE0002000) -- CPU_ReadMem(4 bytes @ 0xE000EDFC) -- CPU_ReadMem(4 bytes @ 0xE0001000) (0025ms, 2649ms total)
T0E8C 002:677 JLINK_ReadReg(R15 (PC))  returns 0x080006E8 (0000ms, 2649ms total)
T0E8C 002:677 JLINK_ReadReg(XPSR)  returns 0x01000000 (0000ms, 2649ms total)
T0E8C 002:677 JLINK_Halt()  returns 0x00 (0000ms, 2649ms total)
T0E8C 002:677 JLINK_IsHalted()  returns TRUE (0000ms, 2649ms total)
T0E8C 002:677 JLINK_ReadMemU32(0xE000EDF0, 0x0001 Items, ...) -- CPU_ReadMem(4 bytes @ 0xE000EDF0) - Data: 03 00 03 00  returns 0x01 (0001ms, 2650ms total)
T0E8C 002:678 JLINK_WriteU32(0xE000EDF0, 0xA05F0003) -- CPU_WriteMem(4 bytes @ 0xE000EDF0)  returns 0x00 (0000ms, 2650ms total)
T0E8C 002:678 JLINK_WriteU32(0xE000EDFC, 0x01000000) -- CPU_WriteMem(4 bytes @ 0xE000EDFC)  returns 0x00 (0001ms, 2651ms total)
T0E8C 002:680 JLINK_GetHWStatus(...)  returns 0x00 (0000ms, 2651ms total)
T0E8C 002:681 JLINK_GetNumBPUnits(Type = 0xFFFFFF00)  returns 0x06 (0000ms, 2651ms total)
T0E8C 002:681 JLINK_GetNumBPUnits(Type = 0xF0)  returns 0x2000 (0000ms, 2651ms total)
T0E8C 002:681 JLINK_GetNumWPUnits()  returns 0x04 (0000ms, 2651ms total)
T0E8C 002:681 JLINK_GetSpeed()  returns 0x2EE0 (0000ms, 2651ms total)
T0E8C 002:682 JLINK_ReadMemU32(0xE000E004, 0x0001 Items, ...) -- CPU_ReadMem(4 bytes @ 0xE000E004) - Data: 02 00 00 00  returns 0x01 (0000ms, 2651ms total)
T0E8C 002:682 JLINK_ReadMemU32(0xE000E004, 0x0001 Items, ...) -- CPU_ReadMem(4 bytes @ 0xE000E004) - Data: 02 00 00 00  returns 0x01 (0001ms, 2652ms total)
T0E8C 002:683 JLINK_WriteMem(0xE0001000, 0x001C Bytes, ...) - Data: 01 00 00 00 00 00 00 00 00 00 00 00 00 00 00 00 ... -- CPU_WriteMem(28 bytes @ 0xE0001000)  returns 0x1C (0001ms, 2653ms total)
T0E8C 002:684 JLINK_ReadMem (0xE0001000, 0x001C Bytes, ...) -- CPU_ReadMem(28 bytes @ 0xE0001000) - Data: 01 00 00 40 00 00 00 00 00 00 00 00 00 00 00 00 ...  returns 0x00 (0001ms, 2654ms total)
T0E8C 002:685 JLINK_ReadReg(R15 (PC))  returns 0x080006E8 (0000ms, 2654ms total)
T0E8C 002:685 JLINK_ReadReg(XPSR)  returns 0x01000000 (0000ms, 2654ms total)
T0E8C 002:810 JLINK_SetResetType(JLINKARM_RESET_TYPE_NORMAL)  returns JLINKARM_RESET_TYPE_NORMAL (0000ms, 2654ms total)
T0E8C 002:810 JLINK_Reset() -- CPU_WriteMem(4 bytes @ 0xE000EDF0) -- CPU_WriteMem(4 bytes @ 0xE000EDFC) -- CPU_WriteMem(4 bytes @ 0xE000ED0C) -- CPU_ReadMem(4 bytes @ 0xE000EDF0) -- CPU_ReadMem(4 bytes @ 0xE000EDF0) -- CPU_WriteMem(4 bytes @ 0xE000EDF0) -- CPU_WriteMem(4 bytes @ 0xE000EDFC) -- CPU is running -- CPU_ReadMem(4 bytes @ 0xE000EDF0) >0x80 JTAG> >0x40 JTAG> >0x30 JTAG> >0x40 JTAG> >0x50 JTAG> >0x40 JTAG> -- CPU_WriteMem(4 bytes @ 0xE000EDFC) -- CPU_WriteMem(4 bytes @ 0xE0001028)
 -- CPU_WriteMem(4 bytes @ 0xE0001038) -- CPU_WriteMem(4 bytes @ 0xE0001048) -- CPU_WriteMem(4 bytes @ 0xE0001058) -- CPU_WriteMem(4 bytes @ 0xE0002000) -- CPU_ReadMem(4 bytes @ 0xE000EDFC) -- CPU_ReadMem(4 bytes @ 0xE0001000) (0028ms, 2682ms total)
T0E8C 002:838 JLINK_ReadReg(R15 (PC))  returns 0x080006E8 (0000ms, 2682ms total)
T0E8C 002:838 JLINK_ReadReg(XPSR)  returns 0x01000000 (0000ms, 2682ms total)
T0E8C 002:838 JLINK_ReadMemU32(0xE0001004, 0x0001 Items, ...) -- CPU_ReadMem(4 bytes @ 0xE0001004) - Data: 15 1D 00 00  returns 0x01 (0000ms, 2682ms total)
T0E8C 003:004 JLINK_ReadMem (0x080006E8, 0x003C Bytes, ...) -- CPU_ReadMem(128 bytes @ 0x080006C0) -- Updating C cache (128 bytes @ 0x080006C0) -- Read from C cache (60 bytes @ 0x080006E8) - Data: 09 48 80 47 09 48 00 47 FE E7 FE E7 FE E7 FE E7 ...  returns 0x00 (0002ms, 2684ms total)
T0E8C 003:659 JLINK_ReadMem (0x00000000, 0x002D Bytes, ...) -- CPU_ReadMem(4 bytes @ 0x00000004) -- CPU_ReadMem(64 bytes @ 0x08000000) -- Updating C cache (64 bytes @ 0x08000000) -- Read from C cache (45 bytes @ 0x08000000) - Data: 60 07 00 20 E9 06 00 08 97 01 00 08 99 01 00 08 ...  returns 0x00 (0001ms, 2685ms total)
T0E8C 003:851 JLINK_ReadMem (0x00000000, 0x0045 Bytes, ...) -- CPU_ReadMem(64 bytes @ 0x08000040) -- Updating C cache (64 bytes @ 0x08000040) -- Read from C cache (69 bytes @ 0x08000000) - Data: 60 07 00 20 E9 06 00 08 97 01 00 08 99 01 00 08 ...  returns 0x00 (0001ms, 2686ms total)
T0BD4 004:106 JLINK_SetBPEx(Addr = 0x08000186, Type = 0xFFFFFFF2)  returns 0x00000001 (0000ms, 2686ms total)
T0BD4 004:106 JLINK_Go() -- CPU_WriteMem(4 bytes @ 0xE0002008) -- CPU_WriteMem(4 bytes @ 0xE000200C) -- CPU_WriteMem(4 bytes @ 0xE0002010) -- CPU_WriteMem(4 bytes @ 0xE0002014) -- CPU_WriteMem(4 bytes @ 0xE0002018) -- CPU_WriteMem(4 bytes @ 0xE000201C) -- CPU_WriteMem(4 bytes @ 0xE0001004) (0003ms, 2689ms total)
T0BD4 004:211 JLINK_IsHalted()  returns TRUE (0002ms, 2691ms total)
T0BD4 004:213 JLINK_Halt()  returns 0x00 (0000ms, 2689ms total)
T0BD4 004:213 JLINK_IsHalted()  returns TRUE (0000ms, 2689ms total)
T0BD4 004:213 JLINK_IsHalted()  returns TRUE (0000ms, 2689ms total)
T0BD4 004:213 JLINK_IsHalted()  returns TRUE (0000ms, 2689ms total)
T0BD4 004:213 JLINK_ReadReg(R15 (PC))  returns 0x08000186 (0000ms, 2689ms total)
T0BD4 004:213 JLINK_ReadReg(XPSR)  returns 0x21000000 (0000ms, 2689ms total)
T0BD4 004:213 JLINK_ClrBPEx(BPHandle = 0x00000001)  returns 0x00 (0000ms, 2689ms total)
T0BD4 004:213 JLINK_ReadMemU32(0xE000ED30, 0x0001 Items, ...) -- CPU_ReadMem(4 bytes @ 0xE000ED30) - Data: 03 00 00 00  returns 0x01 (0001ms, 2690ms total)
T0BD4 004:214 JLINK_ReadMemU32(0xE0001028, 0x0001 Items, ...) -- CPU_ReadMem(4 bytes @ 0xE0001028) - Data: 00 00 00 00  returns 0x01 (0000ms, 2690ms total)
T0BD4 004:214 JLINK_ReadMemU32(0xE0001038, 0x0001 Items, ...) -- CPU_ReadMem(4 bytes @ 0xE0001038) - Data: 00 02 00 00  returns 0x01 (0001ms, 2691ms total)
T0BD4 004:215 JLINK_ReadMemU32(0xE0001048, 0x0001 Items, ...) -- CPU_ReadMem(4 bytes @ 0xE0001048) - Data: 00 00 00 00  returns 0x01 (0000ms, 2691ms total)
T0BD4 004:215 JLINK_ReadMemU32(0xE0001058, 0x0001 Items, ...) -- CPU_ReadMem(4 bytes @ 0xE0001058) - Data: 00 00 00 00  returns 0x01 (0000ms, 2691ms total)
T0BD4 004:215 JLINK_ReadReg(R0)  returns 0x20000160 (0000ms, 2691ms total)
T0BD4 004:215 JLINK_ReadReg(R1)  returns 0x20000360 (0000ms, 2691ms total)
T0BD4 004:215 JLINK_ReadReg(R2)  returns 0x20000360 (0001ms, 2692ms total)
T0BD4 004:216 JLINK_ReadReg(R3)  returns 0x20000360 (0000ms, 2692ms total)
T0BD4 004:216 JLINK_ReadReg(R4)  returns 0x00000000 (0000ms, 2692ms total)
T0BD4 004:216 JLINK_ReadReg(R5)  returns 0x200000FC (0000ms, 2692ms total)
T0BD4 004:216 JLINK_ReadReg(R6)  returns 0x00000000 (0000ms, 2692ms total)
T0BD4 004:216 JLINK_ReadReg(R7)  returns 0x00000000 (0000ms, 2692ms total)
T0BD4 004:216 JLINK_ReadReg(R8)  returns 0x00000000 (0000ms, 2692ms total)
T0BD4 004:216 JLINK_ReadReg(R9)  returns 0x20000160 (0000ms, 2692ms total)
T0BD4 004:216 JLINK_ReadReg(R10)  returns 0x080014F4 (0000ms, 2692ms total)
T0BD4 004:216 JLINK_ReadReg(R11)  returns 0x00000000 (0000ms, 2692ms total)
T0BD4 004:216 JLINK_ReadReg(R12)  returns 0x2000013C (0000ms, 2692ms total)
T0BD4 004:216 JLINK_ReadReg(R13 (SP))  returns 0x20000760 (0000ms, 2692ms total)
T0BD4 004:216 JLINK_ReadReg(R14)  returns 0x08000177 (0000ms, 2692ms total)
T0BD4 004:216 JLINK_ReadReg(R15 (PC))  returns 0x08000186 (0000ms, 2692ms total)
T0BD4 004:216 JLINK_ReadReg(XPSR)  returns 0x21000000 (0000ms, 2692ms total)
T0BD4 004:216 JLINK_ReadReg(MSP)  returns 0x20000760 (0000ms, 2692ms total)
T0BD4 004:216 JLINK_ReadReg(PSP)  returns 0x20000800 (0000ms, 2692ms total)
T0BD4 004:216 JLINK_ReadReg(CFBP)  returns 0x00000000 (0000ms, 2692ms total)
T0E8C 004:219 JLINK_ReadMemU32(0xE0001004, 0x0001 Items, ...) -- CPU_ReadMem(4 bytes @ 0xE0001004) - Data: F7 1B 00 00  returns 0x01 (0001ms, 2693ms total)
T0E8C 004:222 JLINK_ReadMem (0x08000186, 0x0002 Bytes, ...) -- CPU_ReadMem(64 bytes @ 0x08000180) -- Updating C cache (64 bytes @ 0x08000180) -- Read from C cache (2 bytes @ 0x08000186) - Data: 00 F0  returns 0x00 (0001ms, 2694ms total)
T0E8C 004:223 JLINK_ReadMem (0x08000188, 0x003C Bytes, ...) -- CPU_ReadMem(64 bytes @ 0x080001C0) -- Updating C cache (64 bytes @ 0x080001C0) -- Read from C cache (60 bytes @ 0x08000188) - Data: 63 FA 00 F0 53 F9 01 E0 00 F0 71 FA FC E7 70 47 ...  returns 0x00 (0001ms, 2695ms total)
T0E8C 008:268 JLINK_Close() -- CPU_WriteMem(4 bytes @ 0xE0002008) >0x80 JTAG> >0x08 JTAG> (0004ms, 2699ms total)
T0E8C 008:268  (0004ms, 2699ms total)
T0E8C 008:268 Closed (0004ms, 2699ms total)
